
Converged in 1.41 seconds
Objective Function Value = 764014.47 $/hr
================================================================================
|     System Summary                                                           |
================================================================================

How many?                How much?              P (MW)            Q (MVAr)
---------------------    -------------------  -------------  -----------------
Buses           2737     Total Gen Capacity   27074.9           0.0 to 0.0
Generators       399     On-line Capacity     14677.9           0.0 to 0.0
Committed Gens   219     Generation (actual)  11267.2               0.0
Loads           2008     Load                 11267.2               0.0
  Fixed         2008       Fixed              11267.2               0.0
  Dispatchable     0       Dispatchable          -0.0 of -0.0      -0.0
Shunts             1     Shunt (inj)              0.0               0.0
Branches        3263     Losses (I^2 * Z)         0.00              0.00
Transformers    3263     Branch Charging (inj)     -                0.0
Inter-ties        16     Total Inter-tie Flow  1569.1               0.0
Areas              4

                          Minimum                      Maximum
                 -------------------------  --------------------------------
Voltage Magnitude   1.000 p.u. @ bus 1          1.000 p.u. @ bus 1   
Voltage Angle     -22.54 deg   @ bus 2486       6.64 deg   @ bus 247 
Lambda P           89.22 $/MWh @ bus 2054      90.31 $/MWh @ bus 2092
Lambda Q            0.00 $/MWh @ bus 1          0.00 $/MWh @ bus 1   

Converged in 0.17 seconds
Objective Function Value = 764014.47 $/hr
================================================================================
|     System Summary                                                           |
================================================================================

How many?                How much?              P (MW)            Q (MVAr)
---------------------    -------------------  -------------  -----------------
Buses           2737     Total Gen Capacity   27074.9           0.0 to 0.0
Generators       399     On-line Capacity     14677.9           0.0 to 0.0
Committed Gens   219     Generation (actual)  11267.2               0.0
Loads           2008     Load                 11267.2               0.0
  Fixed         2008       Fixed              11267.2               0.0
  Dispatchable     0       Dispatchable          -0.0 of -0.0      -0.0
Shunts             1     Shunt (inj)              0.0               0.0
Branches        3263     Losses (I^2 * Z)         0.00              0.00
Transformers    3263     Branch Charging (inj)     -                0.0
Inter-ties        16     Total Inter-tie Flow  1569.1               0.0
Areas              4

                          Minimum                      Maximum
                 -------------------------  --------------------------------
Voltage Magnitude   1.000 p.u. @ bus 1          1.000 p.u. @ bus 1   
Voltage Angle     -22.54 deg   @ bus 2486       6.64 deg   @ bus 247 
Lambda P           89.22 $/MWh @ bus 2054      90.31 $/MWh @ bus 2092
Lambda Q            0.00 $/MWh @ bus 1          0.00 $/MWh @ bus 1   

Converged in 0.16 seconds
Objective Function Value = 764014.47 $/hr
================================================================================
|     System Summary                                                           |
================================================================================

How many?                How much?              P (MW)            Q (MVAr)
---------------------    -------------------  -------------  -----------------
Buses           2737     Total Gen Capacity   27074.9           0.0 to 0.0
Generators       399     On-line Capacity     14677.9           0.0 to 0.0
Committed Gens   219     Generation (actual)  11267.2               0.0
Loads           2008     Load                 11267.2               0.0
  Fixed         2008       Fixed              11267.2               0.0
  Dispatchable     0       Dispatchable          -0.0 of -0.0      -0.0
Shunts             1     Shunt (inj)              0.0               0.0
Branches        3263     Losses (I^2 * Z)         0.00              0.00
Transformers    3263     Branch Charging (inj)     -                0.0
Inter-ties        16     Total Inter-tie Flow  1569.1               0.0
Areas              4

                          Minimum                      Maximum
                 -------------------------  --------------------------------
Voltage Magnitude   1.000 p.u. @ bus 1          1.000 p.u. @ bus 1   
Voltage Angle     -22.54 deg   @ bus 2486       6.64 deg   @ bus 247 
Lambda P           89.22 $/MWh @ bus 2054      90.31 $/MWh @ bus 2092
Lambda Q            0.00 $/MWh @ bus 1          0.00 $/MWh @ bus 1   

Converged in 0.29 seconds
Objective Function Value = 41263.94 $/hr
================================================================================
|     System Summary                                                           |
================================================================================

How many?                How much?              P (MW)            Q (MVAr)
---------------------    -------------------  -------------  -----------------
Buses             39     Total Gen Capacity    7367.0           0.0 to 0.0
Generators        10     On-line Capacity      7367.0           0.0 to 0.0
Committed Gens    10     Generation (actual)   6254.2               0.0
Loads             21     Load                  6254.2               0.0
  Fixed           21       Fixed               6254.2               0.0
  Dispatchable     0       Dispatchable          -0.0 of -0.0      -0.0
Shunts             0     Shunt (inj)             -0.0               0.0
Branches          46     Losses (I^2 * Z)         0.00              0.00
Transformers      46     Branch Charging (inj)     -                0.0
Inter-ties         6     Total Inter-tie Flow   836.0               0.0
Areas              3

                          Minimum                      Maximum
                 -------------------------  --------------------------------
Voltage Magnitude   1.000 p.u. @ bus 1          1.000 p.u. @ bus 1   
Voltage Angle     -18.20 deg   @ bus 39         9.65 deg   @ bus 36  
Lambda P           13.52 $/MWh @ bus 6         13.52 $/MWh @ bus 5   
Lambda Q            0.00 $/MWh @ bus 1          0.00 $/MWh @ bus 1   

================================================================================
|     Bus Data                                                                 |
================================================================================
 Bus      Voltage          Generation             Load          Lambda($/MVA-hr)
  #   Mag(pu) Ang(deg)   P (MW)   Q (MVAr)   P (MW)   Q (MVAr)     P        Q   
----- ------- --------  --------  --------  --------  --------  -------  -------
    1  1.000  -14.108       -         -       97.60      0.00    13.517     -
    2  1.000   -5.087       -         -         -         -      13.517     -
    3  1.000   -8.987       -         -      322.00      0.00    13.517     -
    4  1.000  -10.611       -         -      500.00      0.00    13.517     -
    5  1.000   -9.883       -         -         -         -      13.517     -
    6  1.000   -9.121       -         -         -         -      13.517     -
    7  1.000  -11.801       -         -      233.80      0.00    13.517     -
    8  1.000  -12.524       -         -      522.00      0.00    13.517     -
    9  1.000  -15.939       -         -        6.50      0.00    13.517     -
   10  1.000   -6.384       -         -         -         -      13.517     -
   11  1.000   -7.324       -         -         -         -      13.517     -
   12  1.000   -7.304       -         -        8.53      0.00    13.517     -
   13  1.000   -7.072       -         -         -         -      13.517     -
   14  1.000   -8.633       -         -         -         -      13.517     -
   15  1.000   -8.660       -         -      320.00      0.00    13.517     -
   16  1.000   -6.949       -         -      329.00      0.00    13.517     -
   17  1.000   -8.193       -         -         -         -      13.517     -
   18  1.000   -8.955       -         -      158.00      0.00    13.517     -
   19  1.000   -1.586       -         -         -         -      13.517     -
   20  1.000   -2.946       -         -      680.00      0.00    13.517     -
   21  1.000   -4.224       -         -      274.00      0.00    13.517     -
   22  1.000    0.800       -         -         -         -      13.517     -
   23  1.000    0.610       -         -      247.50      0.00    13.517     -
   24  1.000   -6.751       -         -      308.60      0.00    13.517     -
   25  1.000   -4.234       -         -      224.00      0.00    13.517     -
   26  1.000   -7.324       -         -      139.00      0.00    13.517     -
   27  1.000   -9.003       -         -      281.00      0.00    13.517     -
   28  1.000   -5.673       -         -      206.00      0.00    13.517     -
   29  1.000   -3.365       -         -      283.50      0.00    13.517     -
   30  1.000    1.766    660.85      0.00       -         -      13.517     -
   31  1.000    0.000*   646.00      0.00      9.20      0.00    13.517     -
   32  1.000    1.189    660.85      0.00       -         -      13.517     -
   33  1.000    3.719    652.00      0.00       -         -      13.517     -
   34  1.000    2.293    508.00      0.00       -         -      13.517     -
   35  1.000    6.214    660.85      0.00       -         -      13.517     -
   36  1.000    9.649    580.00      0.00       -         -      13.517     -
   37  1.000    3.263    564.00      0.00       -         -      13.517     -
   38  1.000    2.542    660.85      0.00       -         -      13.517     -
   39  1.000  -18.197    660.85      0.00   1104.00      0.00    13.517     -
                        --------  --------  --------  --------
               Total:   6254.23      0.00   6254.23      0.00

================================================================================
|     Branch Data                                                              |
================================================================================
Brnch   From   To    From Bus Injection   To Bus Injection     Loss (I^2 * Z)  
  #     Bus    Bus    P (MW)   Q (MVAr)   P (MW)   Q (MVAr)   P (MW)   Q (MVAr)
-----  -----  -----  --------  --------  --------  --------  --------  --------
   1      1      2   -383.08      0.00    383.08      0.00     0.000      0.00
   2      1     39    285.48      0.00   -285.48      0.00     0.000      0.00
   3      2      3    450.81      0.00   -450.81      0.00     0.000      0.00
   4      2     25   -173.05      0.00    173.05      0.00     0.000      0.00
   5      2     30   -660.85      0.00    660.85      0.00     0.000      0.00
   6      3      4    133.05      0.00   -133.05      0.00     0.000      0.00
   7      3     18     -4.24      0.00      4.24      0.00     0.000      0.00
   8      4      5    -99.33      0.00     99.33      0.00     0.000      0.00
   9      4     14   -267.62      0.00    267.62      0.00     0.000      0.00
  10      5      6   -510.99      0.00    510.99      0.00     0.000      0.00
  11      5      8    411.66      0.00   -411.66      0.00     0.000      0.00
  12      6      7    508.31      0.00   -508.31      0.00     0.000      0.00
  13      6     11   -382.50      0.00    382.50      0.00     0.000      0.00
  14      6     31   -636.80      0.00    636.80      0.00     0.000      0.00
  15      7      8    274.51      0.00   -274.51      0.00     0.000      0.00
  16      8      9    164.17      0.00   -164.17      0.00     0.000      0.00
  17      9     39    157.67      0.00   -157.67      0.00     0.000      0.00
  18     10     11    381.70      0.00   -381.70      0.00     0.000      0.00
  19     10     13    279.15      0.00   -279.15      0.00     0.000      0.00
  20     10     32   -660.85      0.00    660.85      0.00     0.000      0.00
  21     12     11      0.80      0.00     -0.80      0.00     0.000      0.00
  22     12     13     -9.33      0.00      9.33      0.00     0.000      0.00
  23     13     14    269.82      0.00   -269.82      0.00     0.000      0.00
  24     14     15      2.20      0.00     -2.20      0.00     0.000      0.00
  25     15     16   -317.80      0.00    317.80      0.00     0.000      0.00
  26     16     17    243.94      0.00   -243.94      0.00     0.000      0.00
  27     16     19   -480.00      0.00    480.00      0.00     0.000      0.00
  28     16     21   -352.29      0.00    352.29      0.00     0.000      0.00
  29     16     24    -58.46      0.00     58.46      0.00     0.000      0.00
  30     17     18    162.24      0.00   -162.24      0.00     0.000      0.00
  31     17     27     81.70      0.00    -81.70      0.00     0.000      0.00
  32     19     20    172.00      0.00   -172.00      0.00     0.000      0.00
  33     19     33   -652.00      0.00    652.00      0.00     0.000      0.00
  34     20     34   -508.00      0.00    508.00      0.00     0.000      0.00
  35     21     22   -626.29      0.00    626.29      0.00     0.000      0.00
  36     22     23     34.56      0.00    -34.56      0.00     0.000      0.00
  37     22     35   -660.85      0.00    660.85      0.00     0.000      0.00
  38     23     24    367.06      0.00   -367.06      0.00     0.000      0.00
  39     23     36   -580.00      0.00    580.00      0.00     0.000      0.00
  40     25     26    166.95      0.00   -166.95      0.00     0.000      0.00
  41     25     37   -564.00      0.00    564.00      0.00     0.000      0.00
  42     26     27    199.30      0.00   -199.30      0.00     0.000      0.00
  43     26     28    -60.79      0.00     60.79      0.00     0.000      0.00
  44     26     29   -110.56      0.00    110.56      0.00     0.000      0.00
  45     28     29   -266.79      0.00    266.79      0.00     0.000      0.00
  46     29     38   -660.85      0.00    660.85      0.00     0.000      0.00
                                                             --------  --------
                                                    Total:     0.000      0.00

================================================================================
|     Generation Constraints                                                   |
================================================================================
 Gen   Bus                  Active Power Limits
  #     #     Pmin mu     Pmin       Pg       Pmax    Pmax mu
----  -----   -------   --------  --------  --------  -------
   2    31       -         0.00    646.00    646.00     0.297
   4    33       -         0.00    652.00    652.00     0.177
   5    34       -         0.00    508.00    508.00     3.057
   7    36       -         0.00    580.00    580.00     1.617
   8    37       -         0.00    564.00    564.00     1.937

Converged in 0.15 seconds
Objective Function Value = 41263.94 $/hr
================================================================================
|     System Summary                                                           |
================================================================================

How many?                How much?              P (MW)            Q (MVAr)
---------------------    -------------------  -------------  -----------------
Buses             39     Total Gen Capacity    7367.0           0.0 to 0.0
Generators        10     On-line Capacity      7367.0           0.0 to 0.0
Committed Gens    10     Generation (actual)   6254.2               0.0
Loads             21     Load                  6254.2               0.0
  Fixed           21       Fixed               6254.2               0.0
  Dispatchable     0       Dispatchable          -0.0 of -0.0      -0.0
Shunts             0     Shunt (inj)             -0.0               0.0
Branches          46     Losses (I^2 * Z)         0.00              0.00
Transformers      46     Branch Charging (inj)     -                0.0
Inter-ties         6     Total Inter-tie Flow   836.0               0.0
Areas              3

                          Minimum                      Maximum
                 -------------------------  --------------------------------
Voltage Magnitude   1.000 p.u. @ bus 1          1.000 p.u. @ bus 1   
Voltage Angle     -18.20 deg   @ bus 39         9.65 deg   @ bus 36  
Lambda P           13.52 $/MWh @ bus 6         13.52 $/MWh @ bus 5   
Lambda Q            0.00 $/MWh @ bus 1          0.00 $/MWh @ bus 1   

================================================================================
|     Bus Data                                                                 |
================================================================================
 Bus      Voltage          Generation             Load          Lambda($/MVA-hr)
  #   Mag(pu) Ang(deg)   P (MW)   Q (MVAr)   P (MW)   Q (MVAr)     P        Q   
----- ------- --------  --------  --------  --------  --------  -------  -------
    1  1.000  -14.108       -         -       97.60      0.00    13.517     -
    2  1.000   -5.087       -         -         -         -      13.517     -
    3  1.000   -8.987       -         -      322.00      0.00    13.517     -
    4  1.000  -10.611       -         -      500.00      0.00    13.517     -
    5  1.000   -9.883       -         -         -         -      13.517     -
    6  1.000   -9.121       -         -         -         -      13.517     -
    7  1.000  -11.801       -         -      233.80      0.00    13.517     -
    8  1.000  -12.524       -         -      522.00      0.00    13.517     -
    9  1.000  -15.939       -         -        6.50      0.00    13.517     -
   10  1.000   -6.384       -         -         -         -      13.517     -
   11  1.000   -7.324       -         -         -         -      13.517     -
   12  1.000   -7.304       -         -        8.53      0.00    13.517     -
   13  1.000   -7.072       -         -         -         -      13.517     -
   14  1.000   -8.633       -         -         -         -      13.517     -
   15  1.000   -8.660       -         -      320.00      0.00    13.517     -
   16  1.000   -6.949       -         -      329.00      0.00    13.517     -
   17  1.000   -8.193       -         -         -         -      13.517     -
   18  1.000   -8.955       -         -      158.00      0.00    13.517     -
   19  1.000   -1.586       -         -         -         -      13.517     -
   20  1.000   -2.946       -         -      680.00      0.00    13.517     -
   21  1.000   -4.224       -         -      274.00      0.00    13.517     -
   22  1.000    0.800       -         -         -         -      13.517     -
   23  1.000    0.610       -         -      247.50      0.00    13.517     -
   24  1.000   -6.751       -         -      308.60      0.00    13.517     -
   25  1.000   -4.234       -         -      224.00      0.00    13.517     -
   26  1.000   -7.324       -         -      139.00      0.00    13.517     -
   27  1.000   -9.003       -         -      281.00      0.00    13.517     -
   28  1.000   -5.673       -         -      206.00      0.00    13.517     -
   29  1.000   -3.365       -         -      283.50      0.00    13.517     -
   30  1.000    1.766    660.85      0.00       -         -      13.517     -
   31  1.000    0.000*   646.00      0.00      9.20      0.00    13.517     -
   32  1.000    1.189    660.85      0.00       -         -      13.517     -
   33  1.000    3.719    652.00      0.00       -         -      13.517     -
   34  1.000    2.293    508.00      0.00       -         -      13.517     -
