
Converged in 0.00 seconds
================================================================================
|     System Summary                                                           |
================================================================================

How many?                How much?              P (MW)            Q (MVAr)
---------------------    -------------------  -------------  -----------------
Buses             39     Total Gen Capacity    7367.0           0.0 to 0.0
Generators        10     On-line Capacity      7367.0           0.0 to 0.0
Committed Gens    10     Generation (actual)   6254.2               0.0
Loads             21     Load                  6254.2               0.0
  Fixed           21       Fixed               6254.2               0.0
  Dispatchable     0       Dispatchable          -0.0 of -0.0      -0.0
Shunts             0     Shunt (inj)             -0.0               0.0
Branches          46     Losses (I^2 * Z)         0.00              0.00
Transformers      12     Branch Charging (inj)     -                0.0
Inter-ties         6     Total Inter-tie Flow   736.4               0.0
Areas              3

                          Minimum                      Maximum
                 -------------------------  --------------------------------
Voltage Magnitude   1.000 p.u. @ bus 1          1.000 p.u. @ bus 1   
Voltage Angle     -13.46 deg   @ bus 39         7.40 deg   @ bus 36  

================================================================================
|     Bus Data                                                                 |
================================================================================
 Bus      Voltage          Generation             Load        
  #   Mag(pu) Ang(deg)   P (MW)   Q (MVAr)   P (MW)   Q (MVAr)
----- ------- --------  --------  --------  --------  --------
    1  1.000  -12.304       -         -       97.60      0.00 
    2  1.000   -8.104       -         -         -         -   
    3  1.000  -10.989       -         -      322.00      0.00 
    4  1.000  -11.650       -         -      500.00      0.00 
    5  1.000  -10.346       -         -         -         -   
    6  1.000   -9.580       -         -         -         -   
    7  1.000  -11.944       -         -      233.80      0.00 
    8  1.000  -12.509       -         -      522.00      0.00 
    9  1.000  -13.128       -         -        6.50      0.00 
   10  1.000   -7.151       -         -         -         -   
   11  1.000   -7.991       -         -         -         -   
   12  1.000   -8.058       -         -        8.53      0.00 
   13  1.000   -7.912       -         -         -         -   
   14  1.000   -9.667       -         -         -         -   
   15  1.000  -10.103       -         -      320.00      0.00 
   16  1.000   -8.569       -         -      329.00      0.00 
   17  1.000   -9.721       -         -         -         -   
   18  1.000  -10.664       -         -      158.00      0.00 
   19  1.000   -3.429       -         -         -         -   
   20  1.000   -4.871       -         -      680.00      0.00 
   21  1.000   -5.979       -         -      274.00      0.00 
   22  1.000   -1.096       -         -         -         -   
   23  1.000   -1.323       -         -      247.50      0.00 
   24  1.000   -8.416       -         -      308.60      0.00 
   25  1.000   -6.814       -         -      224.00      0.00 
   26  1.000   -7.818       -         -      139.00      0.00 
   27  1.000   -9.972       -         -      281.00      0.00 
   28  1.000   -3.870       -         -      206.00      0.00 
   29  1.000   -0.830       -         -      283.50      0.00 
   30  1.000   -5.447    250.00      0.00       -         -   
   31  1.000    0.000*   634.23      0.00      9.20      0.00 
   32  1.000    0.819    650.00      0.00       -         -   
   33  1.000    2.073    632.00      0.00       -         -   
   34  1.000    0.415    508.00      0.00       -         -   
   35  1.000    4.363    650.00      0.00       -         -   
   36  1.000    7.405    560.00      0.00       -         -   
   37  1.000    0.543    540.00      0.00       -         -   
   38  1.000    6.774    830.00      0.00       -         -   
   39  1.000  -13.461   1000.00      0.00   1104.00      0.00 
                        --------  --------  --------  --------
               Total:   6254.23      0.00   6254.23      0.00

================================================================================
|     Branch Data                                                              |
================================================================================
Brnch   From   To    From Bus Injection   To Bus Injection     Loss (I^2 * Z)  
  #     Bus    Bus    P (MW)   Q (MVAr)   P (MW)   Q (MVAr)   P (MW)   Q (MVAr)
-----  -----  -----  --------  --------  --------  --------  --------  --------
   1      1      2   -178.35      0.00    178.35      0.00     0.000      0.00
   2      1     39     80.75      0.00    -80.75      0.00     0.000      0.00
   3      2      3    333.43      0.00   -333.43      0.00     0.000      0.00
   4      2     25   -261.78      0.00    261.78      0.00     0.000      0.00
   5      2     30   -250.00      0.00    250.00      0.00     0.000      0.00
   6      3      4     54.12      0.00    -54.12      0.00     0.000      0.00
   7      3     18    -42.69      0.00     42.69      0.00     0.000      0.00
   8      4      5   -177.69      0.00    177.69      0.00     0.000      0.00
   9      4     14   -268.20      0.00    268.20      0.00     0.000      0.00
  10      5      6   -514.75      0.00    514.75      0.00     0.000      0.00
  11      5      8    337.07      0.00   -337.07      0.00     0.000      0.00
  12      6      7    448.48      0.00   -448.48      0.00     0.000      0.00
  13      6     11   -338.20      0.00    338.20      0.00     0.000      0.00
  14      6     31   -625.03      0.00    625.03      0.00     0.000      0.00
  15      7      8    214.68      0.00   -214.68      0.00     0.000      0.00
  16      8      9     29.75      0.00    -29.75      0.00     0.000      0.00
  17      9     39     23.25      0.00    -23.25      0.00     0.000      0.00
  18     10     11    340.90      0.00   -340.90      0.00     0.000      0.00
  19     10     13    309.10      0.00   -309.10      0.00     0.000      0.00
  20     10     32   -650.00      0.00    650.00      0.00     0.000      0.00
  21     12     11     -2.70      0.00      2.70      0.00     0.000      0.00
  22     12     13     -5.83      0.00      5.83      0.00     0.000      0.00
  23     13     14    303.27      0.00   -303.27      0.00     0.000      0.00
  24     14     15     35.07      0.00    -35.07      0.00     0.000      0.00
  25     15     16   -284.93      0.00    284.93      0.00     0.000      0.00
  26     16     17    225.97      0.00   -225.97      0.00     0.000      0.00
  27     16     19   -460.00      0.00    460.00      0.00     0.000      0.00
  28     16     21   -334.78      0.00    334.78      0.00     0.000      0.00
  29     16     24    -45.12      0.00     45.12      0.00     0.000      0.00
  30     17     18    200.69      0.00   -200.69      0.00     0.000      0.00
  31     17     27     25.28      0.00    -25.28      0.00     0.000      0.00
  32     19     20    172.00      0.00   -172.00      0.00     0.000      0.00
  33     19     33   -632.00      0.00    632.00      0.00     0.000      0.00
  34     20     34   -508.00      0.00    508.00      0.00     0.000      0.00
  35     21     22   -608.78      0.00    608.78      0.00     0.000      0.00
  36     22     23     41.22      0.00    -41.22      0.00     0.000      0.00
  37     22     35   -650.00      0.00    650.00      0.00     0.000      0.00
  38     23     24    353.72      0.00   -353.72      0.00     0.000      0.00
  39     23     36   -560.00      0.00    560.00      0.00     0.000      0.00
  40     25     26     54.22      0.00    -54.22      0.00     0.000      0.00
  41     25     37   -540.00      0.00    540.00      0.00     0.000      0.00
  42     26     27    255.72      0.00   -255.72      0.00     0.000      0.00
  43     26     28   -145.37      0.00    145.37      0.00     0.000      0.00
  44     26     29   -195.13      0.00    195.13      0.00     0.000      0.00
  45     28     29   -351.37      0.00    351.37      0.00     0.000      0.00
  46     29     38   -830.00      0.00    830.00      0.00     0.000      0.00
                                                             --------  --------
                                                    Total:     0.000      0.00

Converged in 0.01 seconds
================================================================================
|     System Summary                                                           |
================================================================================

How many?                How much?              P (MW)            Q (MVAr)
---------------------    -------------------  -------------  -----------------
Buses             39     Total Gen Capacity    7367.0           0.0 to 0.0
Generators        10     On-line Capacity      7367.0           0.0 to 0.0
Committed Gens    10     Generation (actual)   6254.2               0.0
Loads             21     Load                  6254.2               0.0
  Fixed           21       Fixed               6254.2               0.0
  Dispatchable     0       Dispatchable          -0.0 of -0.0      -0.0
Shunts             0     Shunt (inj)             -0.0               0.0
Branches          46     Losses (I^2 * Z)         0.00              0.00
Transformers      12     Branch Charging (inj)     -                0.0
Inter-ties         6     Total Inter-tie Flow   736.4               0.0
Areas              3

                          Minimum                      Maximum
                 -------------------------  --------------------------------
Voltage Magnitude   1.000 p.u. @ bus 1          1.000 p.u. @ bus 1   
Voltage Angle     -13.46 deg   @ bus 39         7.40 deg   @ bus 36  

================================================================================
|     Bus Data                                                                 |
================================================================================
 Bus      Voltage          Generation             Load        
  #   Mag(pu) Ang(deg)   P (MW)   Q (MVAr)   P (MW)   Q (MVAr)
----- ------- --------  --------  --------  --------  --------
    1  1.000  -12.304       -         -       97.60      0.00 
    2  1.000   -8.104       -         -         -         -   
    3  1.000  -10.989       -         -      322.00      0.00 
    4  1.000  -11.650       -         -      500.00      0.00 
    5  1.000  -10.346       -         -         -         -   
    6  1.000   -9.580       -         -         -         -   
    7  1.000  -11.944       -         -      233.80      0.00 
    8  1.000  -12.509       -         -      522.00      0.00 
    9  1.000  -13.128       -         -        6.50      0.00 
   10  1.000   -7.151       -         -         -         -   
   11  1.000   -7.991       -         -         -         -   
   12  1.000   -8.058       -         -        8.53      0.00 
   13  1.000   -7.912       -         -         -         -   
   14  1.000   -9.667       -         -         -         -   
   15  1.000  -10.103       -         -      320.00      0.00 
   16  1.000   -8.569       -         -      329.00      0.00 
   17  1.000   -9.721       -         -         -         -   
   18  1.000  -10.664       -         -      158.00      0.00 
   19  1.000   -3.429       -         -         -         -   
   20  1.000   -4.871       -         -      680.00      0.00 
   21  1.000   -5.979       -         -      274.00      0.00 
   22  1.000   -1.096       -         -         -         -   
   23  1.000   -1.323       -         -      247.50      0.00 
   24  1.000   -8.416       -         -      308.60      0.00 
   25  1.000   -6.814       -         -      224.00      0.00 
   26  1.000   -7.818       -         -      139.00      0.00 
   27  1.000   -9.972       -         -      281.00      0.00 
   28  1.000   -3.870       -         -      206.00      0.00 
   29  1.000   -0.830       -         -      283.50      0.00 
   30  1.000   -5.447    250.00      0.00       -         -   
   31  1.000    0.000*   634.23      0.00      9.20      0.00 
   32  1.000    0.819    650.00      0.00       -         -   
   33  1.000    2.073    632.00      0.00       -         -   
   34  1.000    0.415    508.00      0.00       -         -   
   35  1.000    4.363    650.00      0.00       -         -   
   36  1.000    7.405    560.00      0.00       -         -   
   37  1.000    0.543    540.00      0.00       -         -   
   38  1.000    6.774    830.00      0.00       -         -   
   39  1.000  -13.461   1000.00      0.00   1104.00      0.00 
                        --------  --------  --------  --------
               Total:   6254.23      0.00   6254.23      0.00

================================================================================
|     Branch Data                                                              |
================================================================================
Brnch   From   To    From Bus Injection   To Bus Injection     Loss (I^2 * Z)  
  #     Bus    Bus    P (MW)   Q (MVAr)   P (MW)   Q (MVAr)   P (MW)   Q (MVAr)
-----  -----  -----  --------  --------  --------  --------  --------  --------
   1      1      2   -178.35      0.00    178.35      0.00     0.000      0.00
   2      1     39     80.75      0.00    -80.75      0.00     0.000      0.00
   3      2      3    333.43      0.00   -333.43      0.00     0.000      0.00
   4      2     25   -261.78      0.00    261.78      0.00     0.000      0.00
   5      2     30   -250.00      0.00    250.00      0.00     0.000      0.00
   6      3      4     54.12      0.00    -54.12      0.00     0.000      0.00
   7      3     18    -42.69      0.00     42.69      0.00     0.000      0.00
   8      4      5   -177.69      0.00    177.69      0.00     0.000      0.00
   9      4     14   -268.20      0.00    268.20      0.00     0.000      0.00
  10      5      6   -514.75      0.00    514.75      0.00     0.000      0.00
  11      5      8    337.07      0.00   -337.07      0.00     0.000      0.00
  12      6      7    448.48      0.00   -448.48      0.00     0.000      0.00
  13      6     11   -338.20      0.00    338.20      0.00     0.000      0.00
  14      6     31   -625.03      0.00    625.03      0.00     0.000      0.00
  15      7      8    214.68      0.00   -214.68      0.00     0.000      0.00
  16      8      9     29.75      0.00    -29.75      0.00     0.000      0.00
  17      9     39     23.25      0.00    -23.25      0.00     0.000      0.00
  18     10     11    340.90      0.00   -340.90      0.00     0.000      0.00
  19     10     13    309.10      0.00   -309.10      0.00     0.000      0.00
  20     10     32   -650.00      0.00    650.00      0.00     0.000      0.00
  21     12     11     -2.70      0.00      2.70      0.00     0.000      0.00
  22     12     13     -5.83      0.00      5.83      0.00     0.000      0.00
  23     13     14    303.27      0.00   -303.27      0.00     0.000      0.00
  24     14     15     35.07      0.00    -35.07      0.00     0.000      0.00
  25     15     16   -284.93      0.00    284.93      0.00     0.000      0.00
  26     16     17    225.97      0.00   -225.97      0.00     0.000      0.00
  27     16     19   -460.00      0.00    460.00      0.00     0.000      0.00
  28     16     21   -334.78      0.00    334.78      0.00     0.000      0.00
  29     16     24    -45.12      0.00     45.12      0.00     0.000      0.00
  30     17     18    200.69      0.00   -200.69      0.00     0.000      0.00
  31     17     27     25.28      0.00    -25.28      0.00     0.000      0.00
  32     19     20    172.00      0.00   -172.00      0.00     0.000      0.00
  33     19     33   -632.00      0.00    632.00      0.00     0.000      0.00
  34     20     34   -508.00      0.00    508.00      0.00     0.000      0.00
  35     21     22   -608.78      0.00    608.78      0.00     0.000      0.00
  36     22     23     41.22      0.00    -41.22      0.00     0.000      0.00
  37     22     35   -650.00      0.00    650.00      0.00     0.000      0.00
  38     23     24    353.72      0.00   -353.72      0.00     0.000      0.00
  39     23     36   -560.00      0.00    560.00      0.00     0.000      0.00
  40     25     26     54.22      0.00    -54.22      0.00     0.000      0.00
  41     25     37   -540.00      0.00    540.00      0.00     0.000      0.00
  42     26     27    255.72      0.00   -255.72      0.00     0.000      0.00
  43     26     28   -145.37      0.00    145.37      0.00     0.000      0.00
  44     26     29   -195.13      0.00    195.13      0.00     0.000      0.00
  45     28     29   -351.37      0.00    351.37      0.00     0.000      0.00
  46     29     38   -830.00      0.00    830.00      0.00     0.000      0.00
                                                             --------  --------
                                                    Total:     0.000      0.00

Converged in 0.01 seconds
================================================================================
|     System Summary                                                           |
================================================================================

How many?                How much?              P (MW)            Q (MVAr)
---------------------    -------------------  -------------  -----------------
Buses             39     Total Gen Capacity    7367.0           0.0 to 0.0
Generators        10     On-line Capacity      7367.0           0.0 to 0.0
Committed Gens    10     Generation (actual)   6254.2               0.0
Loads             21     Load                  6254.2               0.0
  Fixed           21       Fixed               6254.2               0.0
  Dispatchable     0       Dispatchable          -0.0 of -0.0      -0.0
Shunts             0     Shunt (inj)             -0.0               0.0
Branches          46     Losses (I^2 * Z)         0.00              0.00
Transformers      12     Branch Charging (inj)     -                0.0
Inter-ties         6     Total Inter-tie Flow   736.4               0.0
Areas              3

                          Minimum                      Maximum
                 -------------------------  --------------------------------
Voltage Magnitude   1.000 p.u. @ bus 1          1.000 p.u. @ bus 1   
Voltage Angle     -13.46 deg   @ bus 39         7.40 deg   @ bus 36  

================================================================================
|     Bus Data                                                                 |
================================================================================
 Bus      Voltage          Generation             Load        
  #   Mag(pu) Ang(deg)   P (MW)   Q (MVAr)   P (MW)   Q (MVAr)
----- ------- --------  --------  --------  --------  --------
    1  1.000  -12.304       -         -       97.60      0.00 
    2  1.000   -8.104       -         -         -         -   
    3  1.000  -10.989       -         -      322.00      0.00 
    4  1.000  -11.650       -         -      500.00      0.00 
    5  1.000  -10.346       -         -         -         -   
    6  1.000   -9.580       -         -         -         -   
    7  1.000  -11.944       -         -      233.80      0.00 
    8  1.000  -12.509       -         -      522.00      0.00 
    9  1.000  -13.128       -         -        6.50      0.00 
